
**** 12/27/21 16:59:51 ********* PSpice 9.2 (Mar 2000) ******** ID# 1 ********

 ** Profile: "SCHEMATIC1-1"  [ E:\Code\Assignments\3rd Term\Electrical Circuit Lab\Session 10\1\1-schematic1-1.sim ] 


 ****     CIRCUIT DESCRIPTION


******************************************************************************




** Creating circuit file "1-schematic1-1.sim.cir" 
** WARNING: THIS AUTOMATICALLY GENERATED FILE MAY BE OVERWRITTEN BY SUBSEQUENT SIMULATIONS

*Libraries: 
* Local Libraries :
* From [PSPICE NETLIST] section of e:\orCad\PSpice\PSpice.ini file:
.lib "nom.lib" 

*Analysis directives: 
.TRAN  0 3m 0 3u 
.PROBE V(*) I(*) W(*) D(*) NOISE(*) 
.INC ".\1-SCHEMATIC1.net" 



**** INCLUDING 1-SCHEMATIC1.net ****
* source 1
X_U1         0 N00635 N000032 N000033 N00698 uA741
V_V3         N00788 0  
+SIN 0 1 1k 0 0 0
R_R1         N00635 N00698  5.6k  
R_R2         N00788 N00635  1k  
V_V1         N000032 0 10
V_V2         0 N000033 10

**** RESUMING 1-schematic1-1.sim.cir ****
.END

**** 12/27/21 16:59:51 ********* PSpice 9.2 (Mar 2000) ******** ID# 1 ********

 ** Profile: "SCHEMATIC1-1"  [ E:\Code\Assignments\3rd Term\Electrical Circuit Lab\Session 10\1\1-schematic1-1.sim ] 


 ****     Diode MODEL PARAMETERS


******************************************************************************




               X_U1.dx         X_U1.dy         
          IS  800.000000E-18  800.000000E-18 
          RS    1               1.000000E-03 
         CJO                   10.000000E-12 


**** 12/27/21 16:59:51 ********* PSpice 9.2 (Mar 2000) ******** ID# 1 ********

 ** Profile: "SCHEMATIC1-1"  [ E:\Code\Assignments\3rd Term\Electrical Circuit Lab\Session 10\1\1-schematic1-1.sim ] 


 ****     BJT MODEL PARAMETERS


******************************************************************************




               X_U1.qx         
               NPN             
          IS  800.000000E-18 
          BF   93.75         
          NF    1            
          BR    1            
          NR    1            
          CN    2.42         
           D     .87         


**** 12/27/21 16:59:51 ********* PSpice 9.2 (Mar 2000) ******** ID# 1 ********

 ** Profile: "SCHEMATIC1-1"  [ E:\Code\Assignments\3rd Term\Electrical Circuit Lab\Session 10\1\1-schematic1-1.sim ] 


 ****     INITIAL TRANSIENT SOLUTION       TEMPERATURE =   27.000 DEG C


******************************************************************************



 NODE   VOLTAGE     NODE   VOLTAGE     NODE   VOLTAGE     NODE   VOLTAGE


(N00635) 19.25E-06 (N00698) 573.7E-06 (N00788)    0.0000 (X_U1.6)-55.75E-09     

(X_U1.7) 578.7E-06 (X_U1.8) 578.7E-06 (X_U1.9)    0.0000 (N000032)   10.0000    

(N000033)  -10.0000                   (X_U1.10)    -.6077                       

(X_U1.11)    9.9603                   (X_U1.12)    9.9603                       

(X_U1.13)    -.5938                   (X_U1.14)    -.5938                       

(X_U1.53)    9.0000                   (X_U1.54)   -9.0000                       

(X_U1.90) 99.02E-06                   (X_U1.91)   40.0000                       

(X_U1.92)  -40.0000                   (X_U1.99)    0.0000                   




    VOLTAGE SOURCE CURRENTS
    NAME         CURRENT

    V_V3         1.925E-08
    V_V1        -1.116E-03
    V_V2        -1.116E-03
    X_U1.vb     -5.575E-13
    X_U1.vc      9.000E-12
    X_U1.ve      9.095E-12
    X_U1.vlim    9.902E-08
    X_U1.vlp    -4.000E-11
    X_U1.vln    -4.000E-11

    TOTAL POWER DISSIPATION   2.23E-02  WATTS



          JOB CONCLUDED

          TOTAL JOB TIME             .08
