
**** 10/18/21 00:18:25 ********* PSpice 9.2 (Mar 2000) ******** ID# 1 ********

 ** Profile: "SCHEMATIC1-asd"  [ E:\CODE\Electric Circuit Lab\az1-SCHEMATIC1-asd.sim ] 


 ****     CIRCUIT DESCRIPTION


******************************************************************************




** Creating circuit file "az1-SCHEMATIC1-asd.sim.cir" 
** WARNING: THIS AUTOMATICALLY GENERATED FILE MAY BE OVERWRITTEN BY SUBSEQUENT SIMULATIONS

*Libraries: 
* Local Libraries :
* From [PSPICE NETLIST] section of e:\orCad\PSpice\PSpice.ini file:
.lib "nom.lib" 

*Analysis directives: 
.PROBE V(*) I(*) W(*) D(*) NOISE(*) 
.INC ".\az1-SCHEMATIC1.net" 



**** INCLUDING az1-SCHEMATIC1.net ****
* source AZ1
R_R2         N02071 0  2.2k  
R_R3         0 N02071  5.6k  
R_R1         N02379 N02071  1k  
V_V5         N02379 0 3V

**** RESUMING az1-SCHEMATIC1-asd.sim.cir ****
.END

**** 10/18/21 00:18:25 ********* PSpice 9.2 (Mar 2000) ******** ID# 1 ********

 ** Profile: "SCHEMATIC1-asd"  [ E:\CODE\Electric Circuit Lab\az1-SCHEMATIC1-asd.sim ] 


 ****     SMALL SIGNAL BIAS SOLUTION       TEMPERATURE =   27.000 DEG C


******************************************************************************



 NODE   VOLTAGE     NODE   VOLTAGE     NODE   VOLTAGE     NODE   VOLTAGE


(N02071)    1.8370 (N02379)    3.0000 




    VOLTAGE SOURCE CURRENTS
    NAME         CURRENT

    V_V5        -1.163E-03

    TOTAL POWER DISSIPATION   3.49E-03  WATTS



          JOB CONCLUDED

          TOTAL JOB TIME            0.00
