
**** 11/01/21 17:24:09 ********* PSpice 9.2 (Mar 2000) ******** ID# 1 ********

 ** Profile: "SCHEMATIC1-5"  [ E:\Code\Assignments\3rd Term\Electric Circuit Lab\Az 5\5\5-schematic1-5.sim ] 


 ****     CIRCUIT DESCRIPTION


******************************************************************************




** Creating circuit file "5-schematic1-5.sim.cir" 
** WARNING: THIS AUTOMATICALLY GENERATED FILE MAY BE OVERWRITTEN BY SUBSEQUENT SIMULATIONS

*Libraries: 
* Local Libraries :
* From [PSPICE NETLIST] section of e:\orCad\PSpice\PSpice.ini file:
.lib "nom.lib" 

*Analysis directives: 
.TRAN  0 400u 0 
.PROBE V(*) I(*) W(*) D(*) NOISE(*) 
.INC ".\5-SCHEMATIC1.net" 



**** INCLUDING 5-SCHEMATIC1.net ****
* source 5
V_V1         N00105 0  
+PULSE 2 -2 0 1n 1n 100u 200u
L_L1         N00105 N00160  18mH  
R_R1         0 N00160  1k  

**** RESUMING 5-schematic1-5.sim.cir ****
.END

**** 11/01/21 17:24:09 ********* PSpice 9.2 (Mar 2000) ******** ID# 1 ********

 ** Profile: "SCHEMATIC1-5"  [ E:\Code\Assignments\3rd Term\Electric Circuit Lab\Az 5\5\5-schematic1-5.sim ] 


 ****     INITIAL TRANSIENT SOLUTION       TEMPERATURE =   27.000 DEG C


******************************************************************************



 NODE   VOLTAGE     NODE   VOLTAGE     NODE   VOLTAGE     NODE   VOLTAGE


(N00105)    2.0000 (N00160)    2.0000 




    VOLTAGE SOURCE CURRENTS
    NAME         CURRENT

    V_V1        -2.000E-03

    TOTAL POWER DISSIPATION   4.00E-03  WATTS



          JOB CONCLUDED

          TOTAL JOB TIME            0.00
