
**** 11/29/21 17:07:23 ********* PSpice 9.2 (Mar 2000) ******** ID# 1 ********

 ** Profile: "SCHEMATIC1-33"  [ E:\Code\Assignments\3rd Term\Electrical-Circuit-Lab-Fall400\Session 7\3\3-SCHEMATIC1-33.sim ] 


 ****     CIRCUIT DESCRIPTION


******************************************************************************




** Creating circuit file "3-SCHEMATIC1-33.sim.cir" 
** WARNING: THIS AUTOMATICALLY GENERATED FILE MAY BE OVERWRITTEN BY SUBSEQUENT SIMULATIONS

*Libraries: 
* Local Libraries :
* From [PSPICE NETLIST] section of e:\orCad\PSpice\PSpice.ini file:
.lib "nom.lib" 

*Analysis directives: 
.TRAN  0 4m 0 1u 
.PROBE V(*) I(*) W(*) D(*) NOISE(*) 
.INC ".\3-SCHEMATIC1.net" 



**** INCLUDING 3-SCHEMATIC1.net ****
* source 3
R_R1         N00119 N00153  1k  
R_R2         0 N00180  10k  
V_V1         N00119 0  
+PULSE 4 -4 0 1n 1n 0.25m 0.5m
C_C1         0 N00153  100n  
C_C2         N00153 N00180  100n  

**** RESUMING 3-SCHEMATIC1-33.sim.cir ****
.END

**** 11/29/21 17:07:23 ********* PSpice 9.2 (Mar 2000) ******** ID# 1 ********

 ** Profile: "SCHEMATIC1-33"  [ E:\Code\Assignments\3rd Term\Electrical-Circuit-Lab-Fall400\Session 7\3\3-SCHEMATIC1-33.sim ] 


 ****     INITIAL TRANSIENT SOLUTION       TEMPERATURE =   27.000 DEG C


******************************************************************************



 NODE   VOLTAGE     NODE   VOLTAGE     NODE   VOLTAGE     NODE   VOLTAGE


(N00119)    4.0000 (N00153)    4.0000 (N00180)    0.0000 




    VOLTAGE SOURCE CURRENTS
    NAME         CURRENT

    V_V1         0.000E+00

    TOTAL POWER DISSIPATION   0.00E+00  WATTS



          JOB CONCLUDED

          TOTAL JOB TIME             .13
