
**** 12/25/21 19:28:00 ********* PSpice 9.2 (Mar 2000) ******** ID# 1 ********

 ** Profile: "SCHEMATIC1-4"  [ E:\CODE\ASSIGNMENTS\3RD TERM\ELECTRICAL CIRCUIT LAB\SESSION 10\4\4-SCHEMATIC1-4.sim ] 


 ****     CIRCUIT DESCRIPTION


******************************************************************************




** Creating circuit file "4-SCHEMATIC1-4.sim.cir" 
** WARNING: THIS AUTOMATICALLY GENERATED FILE MAY BE OVERWRITTEN BY SUBSEQUENT SIMULATIONS

*Libraries: 
* Local Libraries :
* From [PSPICE NETLIST] section of e:\orCad\PSpice\PSpice.ini file:
.lib "nom.lib" 

*Analysis directives: 
.TRAN  0 60m 0 20u 
.PROBE V(*) I(*) W(*) D(*) NOISE(*) 
.INC ".\4-SCHEMATIC1.net" 



**** INCLUDING 4-SCHEMATIC1.net ****
* source 4
V_V1         N000450 0 9
C_C1         N00352 N00472  100n  
V_V6         N00649 0  
+PULSE -2 2 0 1n 1n 5m 10m
V_V2         0 N000901 9
R_R1         N00352 N00472  150k  
R_R2         0 N00916  150k  
X_U1         N00916 N00352 N000450 N000901 N00472 LM741
R_R3         N00649 N00352  150k  

**** RESUMING 4-SCHEMATIC1-4.sim.cir ****
.END

**** 12/25/21 19:28:00 ********* PSpice 9.2 (Mar 2000) ******** ID# 1 ********

 ** Profile: "SCHEMATIC1-4"  [ E:\CODE\ASSIGNMENTS\3RD TERM\ELECTRICAL CIRCUIT LAB\SESSION 10\4\4-SCHEMATIC1-4.sim ] 


 ****     Diode MODEL PARAMETERS


******************************************************************************




               X_U1.x_lm741.dx X_U1.x_lm741.dy 
          IS  800.000000E-18  800.000000E-18 
          RS    1               1.000000E-03 
         CJO                   10.000000E-12 


**** 12/25/21 19:28:00 ********* PSpice 9.2 (Mar 2000) ******** ID# 1 ********

 ** Profile: "SCHEMATIC1-4"  [ E:\CODE\ASSIGNMENTS\3RD TERM\ELECTRICAL CIRCUIT LAB\SESSION 10\4\4-SCHEMATIC1-4.sim ] 


 ****     BJT MODEL PARAMETERS


******************************************************************************




               X_U1.x_lm741.qx 
               NPN             
          IS  800.000000E-18 
          BF   93.75         
          NF    1            
          BR    1            
          NR    1            
          CN    2.42         
           D     .87         


**** 12/25/21 19:28:00 ********* PSpice 9.2 (Mar 2000) ******** ID# 1 ********

 ** Profile: "SCHEMATIC1-4"  [ E:\CODE\ASSIGNMENTS\3RD TERM\ELECTRICAL CIRCUIT LAB\SESSION 10\4\4-SCHEMATIC1-4.sim ] 


 ****     INITIAL TRANSIENT SOLUTION       TEMPERATURE =   27.000 DEG C


******************************************************************************



 NODE   VOLTAGE     NODE   VOLTAGE     NODE   VOLTAGE     NODE   VOLTAGE


(N00352)    -.0120 (N00472)    1.9881 (N00649)   -2.0000 (N00916)    -.0120     

(N000450)    9.0000                   (N000901)   -9.0000                       

(X_U1.x_lm741.6)-187.6E-06            (X_U1.x_lm741.7)    1.9887                

(X_U1.x_lm741.8)    1.9887            (X_U1.x_lm741.9)    0.0000                

(X_U1.x_lm741.10)    -.6196           (X_U1.x_lm741.11)    8.9603               

(X_U1.x_lm741.12)    8.9603           (X_U1.x_lm741.13)    -.6057               

(X_U1.x_lm741.14)    -.6058           (X_U1.x_lm741.53)    8.0000               

(X_U1.x_lm741.54)   -8.0000           (X_U1.x_lm741.90)     .0133               

(X_U1.x_lm741.91)   40.0000           (X_U1.x_lm741.92)  -40.0000               

(X_U1.x_lm741.99)    0.0000           




    VOLTAGE SOURCE CURRENTS
    NAME         CURRENT

    V_V1        -1.006E-03
    V_V6         1.325E-05
    V_V2        -1.006E-03
    X_U1.x_lm741.vb  -1.876E-09
    X_U1.x_lm741.vc   6.013E-12
    X_U1.x_lm741.ve   1.000E-11
    X_U1.x_lm741.vlim   1.333E-05
    X_U1.x_lm741.vlp  -3.999E-11
    X_U1.x_lm741.vln  -4.002E-11

    TOTAL POWER DISSIPATION   1.81E-02  WATTS



          JOB CONCLUDED

          TOTAL JOB TIME             .20
