
**** 12/27/21 17:00:44 ********* PSpice 9.2 (Mar 2000) ******** ID# 1 ********

 ** Profile: "SCHEMATIC1-4"  [ E:\Code\Assignments\3rd Term\Electrical Circuit Lab\Session 10\4\4-schematic1-4.sim ] 


 ****     CIRCUIT DESCRIPTION


******************************************************************************




** Creating circuit file "4-schematic1-4.sim.cir" 
** WARNING: THIS AUTOMATICALLY GENERATED FILE MAY BE OVERWRITTEN BY SUBSEQUENT SIMULATIONS

*Libraries: 
* Local Libraries :
* From [PSPICE NETLIST] section of e:\orCad\PSpice\PSpice.ini file:
.lib "nom.lib" 

*Analysis directives: 
.TRAN  0 20m 0 20u 
.PROBE V(*) I(*) W(*) D(*) NOISE(*) 
.INC ".\4-SCHEMATIC1.net" 



**** INCLUDING 4-SCHEMATIC1.net ****
* source 4
V_V1         N000450 0 9
C_C1         N00352 N00472  100n  
V_V6         N00649 0  
+PULSE -2 2 0 1n 1n 5m 10m
V_V2         0 N000901 9
R_R1         N00352 N00472  6.5k  
R_R2         0 N00916  6.5k  
X_U1         N00916 N00352 N000450 N000901 N00472 LM741
R_R3         N00649 N00352  6.5k  

**** RESUMING 4-schematic1-4.sim.cir ****
.END

**** 12/27/21 17:00:44 ********* PSpice 9.2 (Mar 2000) ******** ID# 1 ********

 ** Profile: "SCHEMATIC1-4"  [ E:\Code\Assignments\3rd Term\Electrical Circuit Lab\Session 10\4\4-schematic1-4.sim ] 


 ****     Diode MODEL PARAMETERS


******************************************************************************




               X_U1.x_lm741.dx X_U1.x_lm741.dy 
          IS  800.000000E-18  800.000000E-18 
          RS    1               1.000000E-03 
         CJO                   10.000000E-12 


**** 12/27/21 17:00:44 ********* PSpice 9.2 (Mar 2000) ******** ID# 1 ********

 ** Profile: "SCHEMATIC1-4"  [ E:\Code\Assignments\3rd Term\Electrical Circuit Lab\Session 10\4\4-schematic1-4.sim ] 


 ****     BJT MODEL PARAMETERS


******************************************************************************




               X_U1.x_lm741.qx 
               NPN             
          IS  800.000000E-18 
          BF   93.75         
          NF    1            
          BR    1            
          NR    1            
          CN    2.42         
           D     .87         


**** 12/27/21 17:00:44 ********* PSpice 9.2 (Mar 2000) ******** ID# 1 ********

 ** Profile: "SCHEMATIC1-4"  [ E:\Code\Assignments\3rd Term\Electrical Circuit Lab\Session 10\4\4-schematic1-4.sim ] 


 ****     INITIAL TRANSIENT SOLUTION       TEMPERATURE =   27.000 DEG C


******************************************************************************



 NODE   VOLTAGE     NODE   VOLTAGE     NODE   VOLTAGE     NODE   VOLTAGE


(N00352)-509.3E-06 (N00472)    1.9995 (N00649)   -2.0000 (N00916)-518.3E-06     

(N000450)    9.0000                   (N000901)   -9.0000                       

(X_U1.x_lm741.6)-192.9E-06            (X_U1.x_lm741.7)    2.0149                

(X_U1.x_lm741.8)    2.0149            (X_U1.x_lm741.9)    0.0000                

(X_U1.x_lm741.10)    -.6082           (X_U1.x_lm741.11)    8.9603               

(X_U1.x_lm741.12)    8.9603           (X_U1.x_lm741.13)    -.5943               

(X_U1.x_lm741.14)    -.5943           (X_U1.x_lm741.53)    8.0000               

(X_U1.x_lm741.54)   -8.0000           (X_U1.x_lm741.90)     .3077               

(X_U1.x_lm741.91)   40.0000           (X_U1.x_lm741.92)  -40.0000               

(X_U1.x_lm741.99)    0.0000           




    VOLTAGE SOURCE CURRENTS
    NAME         CURRENT

    V_V1        -1.006E-03
    V_V6         3.076E-04
    V_V2        -1.006E-03
    X_U1.x_lm741.vb  -1.929E-09
    X_U1.x_lm741.vc   6.001E-12
    X_U1.x_lm741.ve   1.000E-11
    X_U1.x_lm741.vlim   3.077E-04
    X_U1.x_lm741.vlp  -3.969E-11
    X_U1.x_lm741.vln  -4.031E-11

    TOTAL POWER DISSIPATION   1.87E-02  WATTS



          JOB CONCLUDED

          TOTAL JOB TIME             .09
