
**** 01/05/22 18:35:56 ********* PSpice 9.2 (Mar 2000) ******** ID# 1 ********

 ** Profile: "SCHEMATIC1-asd"  [ E:\CODE\ASSIGNMENTS\3RD TERM\ELECTRICAL CIRCUIT LAB\SESSION 10\4\asdasd-SCHEMATIC1-asd.sim ] 


 ****     CIRCUIT DESCRIPTION


******************************************************************************




** Creating circuit file "asdasd-SCHEMATIC1-asd.sim.cir" 
** WARNING: THIS AUTOMATICALLY GENERATED FILE MAY BE OVERWRITTEN BY SUBSEQUENT SIMULATIONS

*Libraries: 
* Local Libraries :
* From [PSPICE NETLIST] section of e:\orCad\PSpice\PSpice.ini file:
.lib "nom.lib" 

*Analysis directives: 
.TRAN  0 3m 0 1u 
.PROBE V(*) I(*) W(*) D(*) NOISE(*) 
.INC ".\asdasd-SCHEMATIC1.net" 



**** INCLUDING asdasd-SCHEMATIC1.net ****
* source ASDASD
V_V1         N00857 0  
+SIN 0 4 1000 0 0 0
R_R2         N00857 N00896  1meg  
D_D2         N008000 N00896 D1N4001 
V_V3         N008000 0 2

**** RESUMING asdasd-SCHEMATIC1-asd.sim.cir ****
.END

**** 01/05/22 18:35:56 ********* PSpice 9.2 (Mar 2000) ******** ID# 1 ********

 ** Profile: "SCHEMATIC1-asd"  [ E:\CODE\ASSIGNMENTS\3RD TERM\ELECTRICAL CIRCUIT LAB\SESSION 10\4\asdasd-SCHEMATIC1-asd.sim ] 


 ****     Diode MODEL PARAMETERS


******************************************************************************




               D1N4001         
          IS   14.110000E-09 
           N    1.984        
         IKF   94.81         
          BV   75            
         IBV   10.000000E-06 
          RS     .03389      
          TT    5.700000E-06 
         CJO   25.890000E-12 
          VJ     .3245       
           M     .44         


**** 01/05/22 18:35:56 ********* PSpice 9.2 (Mar 2000) ******** ID# 1 ********

 ** Profile: "SCHEMATIC1-asd"  [ E:\CODE\ASSIGNMENTS\3RD TERM\ELECTRICAL CIRCUIT LAB\SESSION 10\4\asdasd-SCHEMATIC1-asd.sim ] 


 ****     INITIAL TRANSIENT SOLUTION       TEMPERATURE =   27.000 DEG C


******************************************************************************



 NODE   VOLTAGE     NODE   VOLTAGE     NODE   VOLTAGE     NODE   VOLTAGE


(N00857)    0.0000 (N00896)    1.7522 (N008000)    2.0000                   




    VOLTAGE SOURCE CURRENTS
    NAME         CURRENT

    V_V1         1.752E-06
    V_V3        -1.752E-06

    TOTAL POWER DISSIPATION   3.50E-06  WATTS



          JOB CONCLUDED

          TOTAL JOB TIME             .11
