
**** 12/06/21 16:20:37 ********* PSpice 9.2 (Mar 2000) ******** ID# 1 ********

 ** Profile: "SCHEMATIC1-7"  [ E:\Code\Assignments\3rd Term\Electrical-Circuit-Lab-Fall400\Session 8\7\7-schematic1-7.sim ] 


 ****     CIRCUIT DESCRIPTION


******************************************************************************




** Creating circuit file "7-schematic1-7.sim.cir" 
** WARNING: THIS AUTOMATICALLY GENERATED FILE MAY BE OVERWRITTEN BY SUBSEQUENT SIMULATIONS

*Libraries: 
* Local Libraries :
* From [PSPICE NETLIST] section of e:\orCad\PSpice\PSpice.ini file:
.lib "nom.lib" 

*Analysis directives: 
.TRAN  0 3m 0 10u 
.PROBE V(*) I(*) W(*) D(*) NOISE(*) 
.INC ".\7-SCHEMATIC1.net" 



**** INCLUDING 7-SCHEMATIC1.net ****
* source 7
V_V1         N01476 0  
+SIN 0 10 1k 0 0 0
R_R2         N01476 N01955  1k  
D_D2         N01955 N018431 D1N4001 
V_V2         0 N018431 3

**** RESUMING 7-schematic1-7.sim.cir ****
.END

**** 12/06/21 16:20:37 ********* PSpice 9.2 (Mar 2000) ******** ID# 1 ********

 ** Profile: "SCHEMATIC1-7"  [ E:\Code\Assignments\3rd Term\Electrical-Circuit-Lab-Fall400\Session 8\7\7-schematic1-7.sim ] 


 ****     Diode MODEL PARAMETERS


******************************************************************************




               D1N4001         
          IS   14.110000E-09 
           N    1.984        
         IKF   94.81         
          BV   75            
         IBV   10.000000E-06 
          RS     .03389      
          TT    5.700000E-06 
         CJO   25.890000E-12 
          VJ     .3245       
           M     .44         


**** 12/06/21 16:20:37 ********* PSpice 9.2 (Mar 2000) ******** ID# 1 ********

 ** Profile: "SCHEMATIC1-7"  [ E:\Code\Assignments\3rd Term\Electrical-Circuit-Lab-Fall400\Session 8\7\7-schematic1-7.sim ] 


 ****     INITIAL TRANSIENT SOLUTION       TEMPERATURE =   27.000 DEG C


******************************************************************************



 NODE   VOLTAGE     NODE   VOLTAGE     NODE   VOLTAGE     NODE   VOLTAGE


(N01476)    0.0000 (N01955)   -2.3823 (N018431)   -3.0000                   




    VOLTAGE SOURCE CURRENTS
    NAME         CURRENT

    V_V1        -2.382E-03
    V_V2        -2.382E-03

    TOTAL POWER DISSIPATION   7.15E-03  WATTS



          JOB CONCLUDED

          TOTAL JOB TIME             .08
