
**** 11/15/21 16:47:13 ********* PSpice 9.2 (Mar 2000) ******** ID# 1 ********

 ** Profile: "SCHEMATIC1-4"  [ E:\Code\Assignments\3rd Term\Electric Circuit Lab\Az 6\4\4-schematic1-4.sim ] 


 ****     CIRCUIT DESCRIPTION


******************************************************************************




** Creating circuit file "4-schematic1-4.sim.cir" 
** WARNING: THIS AUTOMATICALLY GENERATED FILE MAY BE OVERWRITTEN BY SUBSEQUENT SIMULATIONS

*Libraries: 
* Local Libraries :
* From [PSPICE NETLIST] section of e:\orCad\PSpice\PSpice.ini file:
.lib "nom.lib" 

*Analysis directives: 
.TRAN  0 0.5ms 0 0.5u 
.PROBE V(*) I(*) W(*) D(*) NOISE(*) 
.INC ".\4-SCHEMATIC1.net" 



**** INCLUDING 4-SCHEMATIC1.net ****
* source 4
V_V1         N00232 0  
+PULSE -2 2 0 1n 1n 0.5m 1m
C_C1         0 N00151  680p  
R_R1         N00286 N00151  0.8k  
L_L1         N00232 N00286  18m  

**** RESUMING 4-schematic1-4.sim.cir ****
.END

**** 11/15/21 16:47:13 ********* PSpice 9.2 (Mar 2000) ******** ID# 1 ********

 ** Profile: "SCHEMATIC1-4"  [ E:\Code\Assignments\3rd Term\Electric Circuit Lab\Az 6\4\4-schematic1-4.sim ] 


 ****     INITIAL TRANSIENT SOLUTION       TEMPERATURE =   27.000 DEG C


******************************************************************************



 NODE   VOLTAGE     NODE   VOLTAGE     NODE   VOLTAGE     NODE   VOLTAGE


(N00151)   -2.0000 (N00232)   -2.0000 (N00286)   -2.0000 




    VOLTAGE SOURCE CURRENTS
    NAME         CURRENT

    V_V1         0.000E+00

    TOTAL POWER DISSIPATION   0.00E+00  WATTS



          JOB CONCLUDED

          TOTAL JOB TIME             .03
