
**** 12/05/21 22:36:51 ********* PSpice 9.2 (Mar 2000) ******** ID# 1 ********

 ** Profile: "SCHEMATIC1-5"  [ E:\Code\Assignments\3rd Term\Electrical-Circuit-Lab-Fall400\Session 8\5\5-SCHEMATIC1-5.sim ] 


 ****     CIRCUIT DESCRIPTION


******************************************************************************




** Creating circuit file "5-SCHEMATIC1-5.sim.cir" 
** WARNING: THIS AUTOMATICALLY GENERATED FILE MAY BE OVERWRITTEN BY SUBSEQUENT SIMULATIONS

*Libraries: 
* Local Libraries :
* From [PSPICE NETLIST] section of e:\orCad\PSpice\PSpice.ini file:
.lib "nom.lib" 

*Analysis directives: 
.TRAN  0 3m 0 10u 
.PROBE V(*) I(*) W(*) D(*) NOISE(*) 
.INC ".\5-SCHEMATIC1.net" 



**** INCLUDING 5-SCHEMATIC1.net ****
* source 5
V_V1         N01476 0  
+SIN 0 10 1k 0 0 0
D_D1         N01476 N01514 D1N4001 
R_R1         N013811 N01514  1k  
V_V4         N013811 0 2

**** RESUMING 5-SCHEMATIC1-5.sim.cir ****
.END

**** 12/05/21 22:36:51 ********* PSpice 9.2 (Mar 2000) ******** ID# 1 ********

 ** Profile: "SCHEMATIC1-5"  [ E:\Code\Assignments\3rd Term\Electrical-Circuit-Lab-Fall400\Session 8\5\5-SCHEMATIC1-5.sim ] 


 ****     Diode MODEL PARAMETERS


******************************************************************************




               D1N4001         
          IS   14.110000E-09 
           N    1.984        
         IKF   94.81         
          BV   75            
         IBV   10.000000E-06 
          RS     .03389      
          TT    5.700000E-06 
         CJO   25.890000E-12 
          VJ     .3245       
           M     .44         


**** 12/05/21 22:36:51 ********* PSpice 9.2 (Mar 2000) ******** ID# 1 ********

 ** Profile: "SCHEMATIC1-5"  [ E:\Code\Assignments\3rd Term\Electrical-Circuit-Lab-Fall400\Session 8\5\5-SCHEMATIC1-5.sim ] 


 ****     INITIAL TRANSIENT SOLUTION       TEMPERATURE =   27.000 DEG C


******************************************************************************



 NODE   VOLTAGE     NODE   VOLTAGE     NODE   VOLTAGE     NODE   VOLTAGE


(N01476)    0.0000 (N01514)    2.0000 (N013811)    2.0000                   




    VOLTAGE SOURCE CURRENTS
    NAME         CURRENT

    V_V1         1.411E-08
    V_V4        -1.411E-08

    TOTAL POWER DISSIPATION   2.82E-08  WATTS



          JOB CONCLUDED

          TOTAL JOB TIME             .02
