
**** 12/27/21 16:21:17 ********* PSpice 9.2 (Mar 2000) ******** ID# 1 ********

 ** Profile: "SCHEMATIC1-3-2"  [ E:\Code\Assignments\3rd Term\Electrical Circuit Lab\Session 10\3\3-schematic1-3-2.sim ] 


 ****     CIRCUIT DESCRIPTION


******************************************************************************




** Creating circuit file "3-schematic1-3-2.sim.cir" 
** WARNING: THIS AUTOMATICALLY GENERATED FILE MAY BE OVERWRITTEN BY SUBSEQUENT SIMULATIONS

*Libraries: 
* Local Libraries :
* From [PSPICE NETLIST] section of e:\orCad\PSpice\PSpice.ini file:
.lib "nom.lib" 

*Analysis directives: 
.AC DEC 1000 0.001 30k
.PROBE V(*) I(*) W(*) D(*) NOISE(*) 
.INC ".\3-SCHEMATIC1.net" 



**** INCLUDING 3-SCHEMATIC1.net ****
* source 3
X_U1         N00784 N00352 N000032 N000033 N00472 LM741
V_V1         N000032 0 9
C_C1         N00352 N00472  100n  
V_V3         N00649 0 DC 0Vdc AC 1Vac 
V_V2         0 N000033 9
R_R1         N00352 N00472  10k  
R_R2         0 N00784  10k  
R_R3         N00649 N00352  10k  

**** RESUMING 3-schematic1-3-2.sim.cir ****
.END

**** 12/27/21 16:21:17 ********* PSpice 9.2 (Mar 2000) ******** ID# 1 ********

 ** Profile: "SCHEMATIC1-3-2"  [ E:\Code\Assignments\3rd Term\Electrical Circuit Lab\Session 10\3\3-schematic1-3-2.sim ] 


 ****     Diode MODEL PARAMETERS


******************************************************************************




               X_U1.x_lm741.dx X_U1.x_lm741.dy 
          IS  800.000000E-18  800.000000E-18 
          RS    1               1.000000E-03 
         CJO                   10.000000E-12 


**** 12/27/21 16:21:17 ********* PSpice 9.2 (Mar 2000) ******** ID# 1 ********

 ** Profile: "SCHEMATIC1-3-2"  [ E:\Code\Assignments\3rd Term\Electrical Circuit Lab\Session 10\3\3-schematic1-3-2.sim ] 


 ****     BJT MODEL PARAMETERS


******************************************************************************




               X_U1.x_lm741.qx 
               NPN             
          IS  800.000000E-18 
          BF   93.75         
          NF    1            
          BR    1            
          NR    1            
          CN    2.42         
           D     .87         


**** 12/27/21 16:21:17 ********* PSpice 9.2 (Mar 2000) ******** ID# 1 ********

 ** Profile: "SCHEMATIC1-3-2"  [ E:\Code\Assignments\3rd Term\Electrical Circuit Lab\Session 10\3\3-schematic1-3-2.sim ] 


 ****     SMALL SIGNAL BIAS SOLUTION       TEMPERATURE =   27.000 DEG C


******************************************************************************



 NODE   VOLTAGE     NODE   VOLTAGE     NODE   VOLTAGE     NODE   VOLTAGE


(N00352)-778.0E-06 (N00472)-758.3E-06 (N00649)    0.0000 (N00784)-797.3E-06     

(N000032)    9.0000                   (N000033)   -9.0000                       

(X_U1.x_lm741.6) 71.18E-09            (X_U1.x_lm741.7)-758.2E-06                

(X_U1.x_lm741.8)-758.2E-06            (X_U1.x_lm741.9)    0.0000                

(X_U1.x_lm741.10)    -.6085           (X_U1.x_lm741.11)    8.9603               

(X_U1.x_lm741.12)    8.9603           (X_U1.x_lm741.13)    -.5946               

(X_U1.x_lm741.14)    -.5946           (X_U1.x_lm741.53)    8.0000               

(X_U1.x_lm741.54)   -8.0000           (X_U1.x_lm741.90) 1.967E-06               

(X_U1.x_lm741.91)   40.0000           (X_U1.x_lm741.92)  -40.0000               

(X_U1.x_lm741.99)    0.0000           




    VOLTAGE SOURCE CURRENTS
    NAME         CURRENT

    V_V1        -1.006E-03
    V_V3        -7.780E-08
    V_V2        -1.006E-03
    X_U1.x_lm741.vb   7.118E-13
    X_U1.x_lm741.vc   8.002E-12
    X_U1.x_lm741.ve   8.185E-12
    X_U1.x_lm741.vlim   1.967E-09
    X_U1.x_lm741.vlp  -4.000E-11
    X_U1.x_lm741.vln  -4.000E-11

    TOTAL POWER DISSIPATION   1.81E-02  WATTS



          JOB CONCLUDED

          TOTAL JOB TIME             .45
